--- file type: CFG ---
test_station_name,test_dev_id,2013
27,6A,21D
1,I,L1,1,A,1.414214e-009,0.000000e+000,0.000000e+000,-999999999,999999999,1.000000e+003,1.000000e+000,S
2,I,L2,2,A,1.414214e-009,0.000000e+000,0.000000e+000,-999999999,999999999,1.000000e+003,1.000000e+000,S
3,I,L3,3,A,1.414214e-009,0.000000e+000,0.000000e+000,-999999999,999999999,1.000000e+003,1.000000e+000,S
4,U,L1,4,V,8.164966e-008,0.000000e+000,0.000000e+000,-999999999,999999999,4.000000e+005,1.000000e+002,S
5,U,L2,5,V,8.164966e-008,0.000000e+000,0.000000e+000,-999999999,999999999,4.000000e+005,1.000000e+002,S
6,U,L3,6,V,8.164966e-008,0.000000e+000,0.000000e+000,-999999999,999999999,4.000000e+005,1.000000e+002,S
1,BIN1,,1,1
2,BIN2,,2,1
3,BIN3,,3,1
4,BIN4,,4,1
5,BIN5,,5,1
6,BIN6,,6,1
7,BIN7,,7,1
8,BIN8,,8,1
9,BIN9,,9,1
10,BIN10,,10,1
11,BIN11,,11,1
12,BIN12,,12,1
13,BIN13,,13,1
14,BIN14,,14,1
15,BIN15,,15,1
16,BIN16,,16,1
17,BIN17,,17,1
18,BIN18,,18,1
19,BIN19,,19,1
20,BIN20,,20,1
21,BIN21,,21,1
50.0
1
1000.000000,21
03/02/2001,04:05:06.700000
03/02/2001,04:05:07.800000
ASCII
1.0
+1,0
F,2
--- file type: INF ---
--- file type: HDR ---
--- file type: DAT ASCII ---
1,0,0,866025403,-866025403,0,866025403,-866025403,1,0,0,0,0,0,0,0,0,0,0,0,0,0,0,0,0,0,0,0,0
2,1000,309016994,669130606,-978147600,309016994,669130606,-978147600,0,1,0,0,0,0,0,0,0,0,0,0,0,0,0,0,0,0,0,0,0
3,2000,587785252,406736643,-994521894,587785252,406736643,-994521894,0,0,1,0,0,0,0,0,0,0,0,0,0,0,0,0,0,0,0,0,0
4,3000,809016994,104528463,-913545457,809016994,104528463,-913545457,0,0,0,1,0,0,0,0,0,0,0,0,0,0,0,0,0,0,0,0,0
5,4000,951056515,-207911691,-743144825,951056515,-207911691,-743144825,0,0,0,0,1,0,0,0,0,0,0,0,0,0,0,0,0,0,0,0,0
6,5000,999999999,-500000000,-500000000,999999999,-500000000,-500000000,0,0,0,0,0,1,0,0,0,0,0,0,0,0,0,0,0,0,0,0,0
7,6000,951056515,-743144825,-207911691,951056515,-743144825,-207911691,0,0,0,0,0,0,1,0,0,0,0,0,0,0,0,0,0,0,0,0,0
8,7000,809016994,-913545457,104528463,809016994,-913545457,104528463,0,0,0,0,0,0,0,1,0,0,0,0,0,0,0,0,0,0,0,0,0
9,8000,587785252,-994521894,406736643,587785252,-994521894,406736643,0,0,0,0,0,0,0,0,1,0,0,0,0,0,0,0,0,0,0,0,0
10,9000,309016994,-978147600,669130606,309016994,-978147600,669130606,0,0,0,0,0,0,0,0,0,1,0,0,0,0,0,0,0,0,0,0,0
11,10000,0,-866025403,866025403,0,-866025403,866025403,0,0,0,0,0,0,0,0,0,0,1,0,0,0,0,0,0,0,0,0,0
12,11000,-309016994,-669130606,978147600,-309016994,-669130606,978147600,0,0,0,0,0,0,0,0,0,0,0,1,0,0,0,0,0,0,0,0,0
13,12000,-587785252,-406736643,994521894,-587785252,-406736643,994521894,0,0,0,0,0,0,0,0,0,0,0,0,1,0,0,0,0,0,0,0,0
14,13000,-809016994,-104528463,913545457,-809016994,-104528463,913545457,0,0,0,0,0,0,0,0,0,0,0,0,0,1,0,0,0,0,0,0,0
15,14000,-951056515,207911691,743144825,-951056515,207911691,743144825,0,0,0,0,0,0,0,0,0,0,0,0,0,0,1,0,0,0,0,0,0
16,15000,-999999999,500000000,500000000,-999999999,500000000,500000000,0,0,0,0,0,0,0,0,0,0,0,0,0,0,0,1,0,0,0,0,0
17,16000,-951056515,743144825,207911691,-951056515,743144825,207911691,0,0,0,0,0,0,0,0,0,0,0,0,0,0,0,0,1,0,0,0,0
18,17000,-809016994,913545457,-104528463,-809016994,913545457,-104528463,0,0,0,0,0,0,0,0,0,0,0,0,0,0,0,0,0,1,0,0,0
19,18000,-587785252,994521894,-406736643,-587785252,994521894,-406736643,0,0,0,0,0,0,0,0,0,0,0,0,0,0,0,0,0,0,1,0,0
20,19000,-309016994,978147600,-669130606,-309016994,978147600,-669130606,0,0,0,0,0,0,0,0,0,0,0,0,0,0,0,0,0,0,0,1,0
21,20000,0,866025403,-866025403,0,866025403,-866025403,0,0,0,0,0,0,0,0,0,0,0,0,0,0,0,0,0,0,0,0,1
